
**** 09/11/19 20:07:45 ****** PSpice 16.5.0 (April 2011) ****** ID# 0 ********

 ** Profile: "SCHEMATIC1-bias"  [ C:\Users\uriel\Desktop\Practica 1\Practica 1.5\practica 1-5-pspicefiles\schematic1\bias.sim ] 


 ****     CIRCUIT DESCRIPTION


******************************************************************************




** Creating circuit file "bias.cir" 
** WARNING: THIS AUTOMATICALLY GENERATED FILE MAY BE OVERWRITTEN BY SUBSEQUENT SIMULATIONS

*Libraries: 
* Profile Libraries :
* Local Libraries :
* From [PSPICE NETLIST] section of C:\Cadence\SPB_16.5\tools\PSpice\PSpice.ini file:
.lib "nom.lib" 

*Analysis directives: 
.TRAN 50u 60ms 0 50u 
.PROBE V(alias(*)) I(alias(*)) W(alias(*)) D(alias(*)) NOISE(alias(*)) 
.INC "..\SCHEMATIC1.net" 



**** INCLUDING SCHEMATIC1.net ****
* source PRACTICA 1-5
D_D1         N14673 N14735 Dbreak 
D_D2         N14673 $D_LO Dbreak 
D_D3         $D_LO N14706 Dbreak 
D_D4         N14735 N14706 Dbreak 
C_Cf         N14706 N14673 1mF
R_Rcarga         N14673 N14706  10 TC=0,0 
R_R2         N14673 0  10meg TC=0,0 
L_Lr         $D_HI N14735  1mH  

**** RESUMING bias.cir ****
.END

**** 09/11/19 20:07:45 ****** PSpice 16.5.0 (April 2011) ****** ID# 0 ********

 ** Profile: "SCHEMATIC1-bias"  [ C:\Users\uriel\Desktop\Practica 1\Practica 1.5\practica 1-5-pspicefiles\schematic1\bias.sim ] 


 ****     Diode MODEL PARAMETERS


******************************************************************************




               Dbreak          
          IS   10.000000E-15 
          RS     .1          
         CJO  100.000000E-15 


**** 09/11/19 20:07:45 ****** PSpice 16.5.0 (April 2011) ****** ID# 0 ********

 ** Profile: "SCHEMATIC1-bias"  [ C:\Users\uriel\Desktop\Practica 1\Practica 1.5\practica 1-5-pspicefiles\schematic1\bias.sim ] 


 ****     INITIAL TRANSIENT SOLUTION       TEMPERATURE =   27.000 DEG C


******************************************************************************



 NODE   VOLTAGE     NODE   VOLTAGE     NODE   VOLTAGE     NODE   VOLTAGE


($D_HI) 43.72E-24  ($D_LO)-102.5E-24  (N14673)    0.0000 (N14706)    0.0000     

(N14735) 43.72E-24 




    VOLTAGE SOURCE CURRENTS
    NAME         CURRENT


    TOTAL POWER DISSIPATION   0.00E+00  WATTS



          JOB CONCLUDED

**** 09/11/19 20:07:45 ****** PSpice 16.5.0 (April 2011) ****** ID# 0 ********

 ** Profile: "SCHEMATIC1-bias"  [ C:\Users\uriel\Desktop\Practica 1\Practica 1.5\practica 1-5-pspicefiles\schematic1\bias.sim ] 


 ****     JOB STATISTICS SUMMARY


******************************************************************************



  Total job time (using Solver 1)   =         .08
